
T1E40 000:323 SEGGER J-Link V4.92 Log File (0000ms, 0267ms total)
T1E40 000:323 DLL Compiled: Sep 30 2014 09:33:42 (0000ms, 0267ms total)
T1E40 000:323 Logging started @ 2015-04-10 09:47 (0000ms, 0267ms total)
T1E40 000:323 JLINK_SetWarnOutHandler(...) (0000ms, 0267ms total)
T1E40 000:323 JLINK_OpenEx(...)
Firmware: J-Link ARM V8 compiled Sep 22 2014 23:26:43
Hardware: V8.00
S/N: 286370559
Feature(s): RDI,FlashDL,FlashBP,JFlash  returns O.K. (0265ms, 0532ms total)
T1E40 000:588 JLINK_SetErrorOutHandler(...) (0000ms, 0532ms total)
T1E40 000:588 JLINK_ExecCommand("ProjectFile = "C:\Users\Yelun\Documents\GitHub\NRF51822_Datelog\pca10028\s110\arm5\JLinkSettings.ini"", ...)  returns 0x00 (0000ms, 0532ms total)
T1E40 000:588 JLINK_ExecCommand("Device = nRF51822_xxAA", ...)Device "NRF51822_XXAA" selected (257 KB flash, 16 KB RAM).  returns 0x00 (0000ms, 0532ms total)
T1E40 000:588 JLINK_ExecCommand("DisableConnectionTimeout", ...)  returns 0x01 (0001ms, 0533ms total)
T1E40 000:589 JLINK_GetHardwareVersion()  returns 0x13880 (0000ms, 0533ms total)
T1E40 000:589 JLINK_GetDLLVersion()  returns 49200 (0000ms, 0533ms total)
T1E40 000:589 JLINK_GetFirmwareString(...) (0000ms, 0533ms total)
T1E40 000:589 JLINK_GetDLLVersion()  returns 49200 (0000ms, 0533ms total)
T1E40 000:589 JLINK_GetCompileDateTime() (0000ms, 0533ms total)
T1E40 000:589 JLINK_GetFirmwareString(...) (0000ms, 0533ms total)
T1E40 000:589 JLINK_GetHardwareVersion()  returns 0x13880 (0000ms, 0533ms total)
T1E40 000:590 JLINK_TIF_Select(JLINKARM_TIF_SWD)  returns 0x00 (0002ms, 0535ms total)
T1E40 000:592 JLINK_SetSpeed(10000) (0001ms, 0536ms total)
T1E40 000:593 JLINK_GetId() >0x108 TIF>Found SWD-DP with ID 0x0BB11477 >0x35 TIF> >0x0D TIF> >0x28 TIF> >0x0D TIF> >0x28 TIF> >0x35 TIF> >0x0D TIF> >0x28 TIF> >0x35 TIF> >0x35 TIF> >0x35 TIF> >0x0D TIF> >0x28 TIF> >0x0D TIF> >0x28 TIF> >0x0D TIF> >0x28 TIF> >0x35 TIF> >0x35 TIF> >0x35 TIF> >0x0D TIF> >0x28 TIF> >0x0D TIF> >0x28 TIF> >0x35 TIF> >0x0D TIF> >0x28 TIF> >0x0D TIF> >0x28 TIF> >0x0D TIF> >0x28 TIF> >0x35 TIF> >0x35 TIF> >0x0D TIF> >0x28 TIF> >0x35 TIF> >0x35 TIF>
Found Cortex-M0 r0p0, Little endian. -- CPU_WriteMem(4 bytes @ 0xE0002000) -- CPU_ReadMem(4 bytes @ 0xE000EDF0) -- CPU_ReadMem(4 bytes @ 0xE0002000)FPUnit: 4 code (BP) slots and 0 literal slots -- CPU_ReadMem(4 bytes @ 0xE000EDFC) -- CPU_ReadMem(4 bytes @ 0xE0001000) -- CPU_WriteMem(4 bytes @ 0xE0001000) -- CPU_ReadMem(4 bytes @ 0xE00FF018) >0x35 TIF>  returns 0x0BB11477 (0042ms, 0578ms total)
T1E40 000:635 JLINK_GetDeviceFamily()  returns 6 (0000ms, 0578ms total)
T1E40 000:635 JLINK_ReadMem (0xE00FFFF0, 0x0010 Bytes, ...) -- CPU is running -- CPU_ReadMem(16 bytes @ 0xE00FFFF0) - Data: 0D 00 00 00 10 00 00 00 05 00 00 00 B1 00 00 00  returns 0x00 (0001ms, 0579ms total)
T1E40 000:636 JLINK_ReadMem (0xE00FFFD0, 0x0020 Bytes, ...) -- CPU is running -- CPU_ReadMem(32 bytes @ 0xE00FFFD0) - Data: 04 00 00 00 00 00 00 00 00 00 00 00 00 00 00 00 ...  returns 0x00 (0001ms, 0580ms total)
T1E40 000:637 JLINK_ReadMem (0xE00FF000, 0x0018 Bytes, ...) -- CPU is running -- CPU_ReadMem(24 bytes @ 0xE00FF000) - Data: 03 F0 F0 FF 03 20 F0 FF 03 30 F0 FF 00 00 00 00 ...  returns 0x00 (0002ms, 0582ms total)
T1E40 000:639 JLINK_ReadMemU32(0xE000ED00, 0x0001 Items, ...) -- CPU is running -- CPU_ReadMem(4 bytes @ 0xE000ED00) - Data: 00 C2 0C 41  returns 0x01 (0000ms, 0582ms total)
T1E40 000:639 JLINK_SetResetType(JLINKARM_RESET_TYPE_NORMAL)  returns JLINKARM_RESET_TYPE_NORMAL (0000ms, 0582ms total)
T1E40 000:639 JLINK_Reset() -- CPU is running -- CPU_WriteMem(4 bytes @ 0xE000EDF0) -- CPU is running -- CPU_WriteMem(4 bytes @ 0xE000EDFC) >0x35 TIF> -- CPU is running -- CPU_WriteMem(4 bytes @ 0xE000ED0C) -- CPU is running -- CPU_ReadMem(4 bytes @ 0xE000EDF0) -- CPU is running -- CPU_ReadMem(4 bytes @ 0xE000EDF0) -- CPU is running -- CPU_WriteMem(4 bytes @ 0xE000EDF0) -- CPU is running -- CPU_WriteMem(4 bytes @ 0xE000EDFC) -- CPU is running -- CPU_ReadMem(4 bytes @ 0xE000EDF0)
 -- CPU_WriteMem(4 bytes @ 0xE0002000) -- CPU_ReadMem(4 bytes @ 0xE000EDFC) -- CPU_ReadMem(4 bytes @ 0xE0001000) -- CPU_WriteMem(4 bytes @ 0xE0001000) (0023ms, 0605ms total)
T1E40 000:663 JLINK_ReadReg(R15 (PC))  returns 0x000006D0 (0000ms, 0605ms total)
T1E40 000:663 JLINK_ReadReg(XPSR)  returns 0xC1000000 (0000ms, 0605ms total)
T1E40 000:663 JLINK_Halt()  returns 0x00 (0000ms, 0605ms total)
T1E40 000:663 JLINK_IsHalted()  returns TRUE (0000ms, 0605ms total)
T1E40 000:663 JLINK_ReadMemU32(0xE000EDF0, 0x0001 Items, ...) -- CPU_ReadMem(4 bytes @ 0xE000EDF0) - Data: 03 00 03 00  returns 0x01 (0001ms, 0606ms total)
T1E40 000:664 JLINK_WriteU32(0xE000EDF0, 0xA05F0003) -- CPU_WriteMem(4 bytes @ 0xE000EDF0)  returns 0x00 (0001ms, 0607ms total)
T1E40 000:665 JLINK_WriteU32(0xE000EDFC, 0x01000000) -- CPU_WriteMem(4 bytes @ 0xE000EDFC)  returns 0x00 (0000ms, 0607ms total)
T1E40 000:666 JLINK_GetHWStatus(...)  returns 0x00 (0000ms, 0608ms total)
T1E40 000:667 JLINK_GetNumBPUnits(Type = 0xFFFFFF00)  returns 0x04 (0000ms, 0608ms total)
T1E40 000:667 JLINK_GetNumBPUnits(Type = 0xF0)  returns 0x2000 (0000ms, 0608ms total)
T1E40 000:667 JLINK_GetNumWPUnits()  returns 0x02 (0000ms, 0608ms total)
T1E40 000:667 JLINK_GetSpeed()  returns 0xFA0 (0000ms, 0608ms total)
T1E40 000:667 JLINK_ReadMemU32(0xE000E004, 0x0001 Items, ...) -- CPU_ReadMem(4 bytes @ 0xE000E004) - Data: 00 00 00 00  returns 0x01 (0001ms, 0609ms total)
T1E40 000:668 JLINK_ReadReg(R15 (PC))  returns 0x000006D0 (0000ms, 0609ms total)
T1E40 000:668 JLINK_ReadReg(XPSR)  returns 0xC1000000 (0000ms, 0609ms total)
T1E40 000:733 JLINK_SetResetType(JLINKARM_RESET_TYPE_NORMAL)  returns JLINKARM_RESET_TYPE_NORMAL (0000ms, 0609ms total)
T1E40 000:733 JLINK_Reset() -- CPU_WriteMem(4 bytes @ 0xE000EDF0) -- CPU_WriteMem(4 bytes @ 0xE000EDFC) >0x35 TIF> -- CPU_WriteMem(4 bytes @ 0xE000ED0C) -- CPU_ReadMem(4 bytes @ 0xE000EDF0) -- CPU_ReadMem(4 bytes @ 0xE000EDF0) -- CPU_WriteMem(4 bytes @ 0xE000EDF0) -- CPU_WriteMem(4 bytes @ 0xE000EDFC) -- CPU is running -- CPU_ReadMem(4 bytes @ 0xE000EDF0) -- CPU_WriteMem(4 bytes @ 0xE0002000) -- CPU_ReadMem(4 bytes @ 0xE000EDFC) -- CPU_ReadMem(4 bytes @ 0xE0001000) -- CPU_WriteMem(4 bytes @ 0xE0001000)
 (0024ms, 0633ms total)
T1E40 000:757 JLINK_ReadReg(R15 (PC))  returns 0x000006D0 (0000ms, 0633ms total)
T1E40 000:757 JLINK_ReadReg(XPSR)  returns 0xC1000000 (0000ms, 0633ms total)
T1E40 000:757 JLINK_ReadMem (0x000006D0, 0x003C Bytes, ...) -- CPU_ReadMem(128 bytes @ 0x000006C0) -- Updating C cache (128 bytes @ 0x000006C0) -- Read from C cache (60 bytes @ 0x000006D0) - Data: 16 49 17 4C 24 68 8C 42 0B D1 16 4B 1B 68 99 42 ...  returns 0x00 (0002ms, 0635ms total)
T1E40 000:785 JLINK_ReadMem (0x40007000, 0x0004 Bytes, ...) -- CPU_ReadMem(4 bytes @ 0x40007000) - Data: 00 00 00 00  returns 0x00 (0001ms, 0636ms total)
T1E40 000:786 JLINK_ReadMem (0x40007004, 0x0004 Bytes, ...) -- CPU_ReadMem(4 bytes @ 0x40007004) - Data: 00 00 00 00  returns 0x00 (0001ms, 0637ms total)
T1E40 000:787 JLINK_ReadMem (0x40007100, 0x0004 Bytes, ...) -- CPU_ReadMem(4 bytes @ 0x40007100) - Data: 00 00 00 00  returns 0x00 (0002ms, 0639ms total)
T1E40 000:789 JLINK_ReadMem (0x40007304, 0x0004 Bytes, ...) -- CPU_ReadMem(4 bytes @ 0x40007304) - Data: 00 00 00 00  returns 0x00 (0001ms, 0640ms total)
T1E40 000:790 JLINK_ReadMem (0x40007308, 0x0004 Bytes, ...) -- CPU_ReadMem(4 bytes @ 0x40007308) - Data: 00 00 00 00  returns 0x00 (0001ms, 0641ms total)
T1E40 000:791 JLINK_ReadMem (0x40007400, 0x0004 Bytes, ...) -- CPU_ReadMem(4 bytes @ 0x40007400) - Data: 00 00 00 00  returns 0x00 (0001ms, 0642ms total)
T1E40 000:792 JLINK_ReadMem (0x40007500, 0x0008 Bytes, ...) -- CPU_ReadMem(8 bytes @ 0x40007500) - Data: 00 00 00 00 18 00 00 00  returns 0x00 (0001ms, 0643ms total)
T1E40 000:793 JLINK_ReadMem (0x40007508, 0x0004 Bytes, ...) -- CPU_ReadMem(4 bytes @ 0x40007508) - Data: 00 00 00 00  returns 0x00 (0001ms, 0644ms total)
T1E40 000:794 JLINK_ReadMem (0x40007FFC, 0x0004 Bytes, ...) -- CPU_ReadMem(4 bytes @ 0x40007FFC) - Data: 01 00 00 00  returns 0x00 (0001ms, 0645ms total)
T1E40 000:795 JLINK_ReadMem (0x40007504, 0x0004 Bytes, ...) -- CPU_ReadMem(4 bytes @ 0x40007504) - Data: 18 00 00 00  returns 0x00 (0001ms, 0646ms total)
T1E40 000:796 JLINK_ReadMem (0x40007504, 0x0004 Bytes, ...) -- CPU_ReadMem(4 bytes @ 0x40007504) - Data: 18 00 00 00  returns 0x00 (0001ms, 0647ms total)
T1E40 000:797 JLINK_ReadMem (0x40007504, 0x0004 Bytes, ...) -- CPU_ReadMem(4 bytes @ 0x40007504) - Data: 18 00 00 00  returns 0x00 (0001ms, 0648ms total)
T1E40 000:798 JLINK_ReadMem (0x40007504, 0x0004 Bytes, ...) -- CPU_ReadMem(4 bytes @ 0x40007504) - Data: 18 00 00 00  returns 0x00 (0001ms, 0649ms total)
T1E40 000:799 JLINK_ReadMem (0x40007504, 0x0004 Bytes, ...) -- CPU_ReadMem(4 bytes @ 0x40007504) - Data: 18 00 00 00  returns 0x00 (0001ms, 0650ms total)
T1E40 000:800 JLINK_ReadMem (0x40007504, 0x0004 Bytes, ...) -- CPU_ReadMem(4 bytes @ 0x40007504) - Data: 18 00 00 00  returns 0x00 (0001ms, 0651ms total)
T1E40 000:801 JLINK_ReadMem (0x40007FFC, 0x0004 Bytes, ...) -- CPU_ReadMem(4 bytes @ 0x40007FFC) - Data: 01 00 00 00  returns 0x00 (0002ms, 0653ms total)
T1E40 000:803 JLINK_ReadMem (0x40007FFC, 0x0004 Bytes, ...) -- CPU_ReadMem(4 bytes @ 0x40007FFC) - Data: 01 00 00 00  returns 0x00 (0001ms, 0654ms total)
T1E40 000:818 JLINK_ReadMem (0x40000000, 0x0018 Bytes, ...) -- CPU_ReadMem(24 bytes @ 0x40000000) - Data: 00 00 00 00 00 00 00 00 00 00 00 00 00 00 00 00 ...  returns 0x00 (0001ms, 0655ms total)
T1E40 000:819 JLINK_ReadMem (0x40000018, 0x0004 Bytes, ...) -- CPU_ReadMem(4 bytes @ 0x40000018) - Data: 00 00 00 00  returns 0x00 (0001ms, 0656ms total)
T1E40 000:820 JLINK_ReadMem (0x40000100, 0x0004 Bytes, ...) -- CPU_ReadMem(4 bytes @ 0x40000100) - Data: 00 00 00 00  returns 0x00 (0001ms, 0657ms total)
T1E40 000:821 JLINK_ReadMem (0x40000104, 0x0004 Bytes, ...) -- CPU_ReadMem(4 bytes @ 0x40000104) - Data: 00 00 00 00  returns 0x00 (0001ms, 0658ms total)
T1E40 000:822 JLINK_ReadMem (0x4000010C, 0x0004 Bytes, ...) -- CPU_ReadMem(4 bytes @ 0x4000010C) - Data: 00 00 00 00  returns 0x00 (0001ms, 0659ms total)
T1E40 000:823 JLINK_ReadMem (0x40000110, 0x0004 Bytes, ...) -- CPU_ReadMem(4 bytes @ 0x40000110) - Data: 00 00 00 00  returns 0x00 (0001ms, 0660ms total)
T1E40 000:824 JLINK_ReadMem (0x40000304, 0x0004 Bytes, ...) -- CPU_ReadMem(4 bytes @ 0x40000304) - Data: 00 00 00 00  returns 0x00 (0001ms, 0661ms total)
T1E40 000:825 JLINK_ReadMem (0x40000308, 0x0004 Bytes, ...) -- CPU_ReadMem(4 bytes @ 0x40000308) - Data: 00 00 00 00  returns 0x00 (0002ms, 0663ms total)
T1E40 000:827 JLINK_ReadMem (0x40000408, 0x0004 Bytes, ...) -- CPU_ReadMem(4 bytes @ 0x40000408) - Data: 00 00 00 00  returns 0x00 (0001ms, 0664ms total)
T1E40 000:828 JLINK_ReadMem (0x4000040C, 0x0004 Bytes, ...) -- CPU_ReadMem(4 bytes @ 0x4000040C) - Data: 00 00 01 00  returns 0x00 (0001ms, 0665ms total)
T1E40 000:829 JLINK_ReadMem (0x40000414, 0x0008 Bytes, ...) -- CPU_ReadMem(8 bytes @ 0x40000414) - Data: 00 00 00 00 00 00 00 00  returns 0x00 (0001ms, 0666ms total)
T1E40 000:830 JLINK_ReadMem (0x4000041C, 0x0004 Bytes, ...) -- CPU_ReadMem(4 bytes @ 0x4000041C) - Data: 00 00 00 00  returns 0x00 (0001ms, 0667ms total)
T1E40 000:831 JLINK_ReadMem (0x40000518, 0x0004 Bytes, ...) -- CPU_ReadMem(4 bytes @ 0x40000518) - Data: 00 00 00 00  returns 0x00 (0001ms, 0668ms total)
T1E40 000:832 JLINK_ReadMem (0x40000538, 0x0004 Bytes, ...) -- CPU_ReadMem(4 bytes @ 0x40000538) - Data: 00 00 00 00  returns 0x00 (0001ms, 0669ms total)
T1E40 000:833 JLINK_ReadMem (0x40000550, 0x0004 Bytes, ...) -- CPU_ReadMem(4 bytes @ 0x40000550) - Data: FF FF FF FF  returns 0x00 (0001ms, 0670ms total)
T1E40 000:834 JLINK_ReadMem (0x4000040C, 0x0004 Bytes, ...) -- CPU_ReadMem(4 bytes @ 0x4000040C) - Data: 00 00 01 00  returns 0x00 (0001ms, 0671ms total)
T1E40 000:835 JLINK_ReadMem (0x4000040C, 0x0004 Bytes, ...) -- CPU_ReadMem(4 bytes @ 0x4000040C) - Data: 00 00 01 00  returns 0x00 (0001ms, 0672ms total)
T1E40 000:836 JLINK_ReadMem (0x4000040C, 0x0004 Bytes, ...) -- CPU_ReadMem(4 bytes @ 0x4000040C) - Data: 00 00 01 00  returns 0x00 (0001ms, 0673ms total)
T1E40 000:837 JLINK_ReadMem (0x40000550, 0x0004 Bytes, ...) -- CPU_ReadMem(4 bytes @ 0x40000550) - Data: FF FF FF FF  returns 0x00 (0001ms, 0674ms total)
T1E40 000:838 JLINK_ReadMem (0x40000550, 0x0004 Bytes, ...) -- CPU_ReadMem(4 bytes @ 0x40000550) - Data: FF FF FF FF  returns 0x00 (0001ms, 0675ms total)
T1E40 000:854 JLINK_ReadMem (0x10000010, 0x0004 Bytes, ...) -- CPU_ReadMem(4 bytes @ 0x10000010) - Data: 00 04 00 00  returns 0x00 (0001ms, 0676ms total)
T1E40 000:855 JLINK_ReadMem (0x10000014, 0x0004 Bytes, ...) -- CPU_ReadMem(4 bytes @ 0x10000014) - Data: 00 01 00 00  returns 0x00 (0001ms, 0677ms total)
T1E40 000:856 JLINK_ReadMem (0x10000028, 0x0004 Bytes, ...) -- CPU_ReadMem(4 bytes @ 0x10000028) - Data: FF FF FF FF  returns 0x00 (0001ms, 0678ms total)
T1E40 000:857 JLINK_ReadMem (0x1000002C, 0x0004 Bytes, ...) -- CPU_ReadMem(4 bytes @ 0x1000002C) - Data: FF FF FF FF  returns 0x00 (0001ms, 0679ms total)
T1E40 000:858 JLINK_ReadMem (0x10000034, 0x0010 Bytes, ...) -- CPU_ReadMem(16 bytes @ 0x10000034) - Data: 02 00 00 00 00 20 00 00 00 20 00 00 FF FF FF FF  returns 0x00 (0002ms, 0681ms total)
T1E40 000:860 JLINK_ReadMem (0x10000044, 0x0004 Bytes, ...) -- CPU_ReadMem(4 bytes @ 0x10000044) - Data: FF FF FF FF  returns 0x00 (0001ms, 0682ms total)
T1E40 000:861 JLINK_ReadMem (0x1000005C, 0x0008 Bytes, ...) -- CPU_ReadMem(8 bytes @ 0x1000005C) - Data: 58 00 FF FF F9 24 B9 1E  returns 0x00 (0001ms, 0683ms total)
T1E40 000:862 JLINK_ReadMem (0x10000064, 0x0004 Bytes, ...) -- CPU_ReadMem(4 bytes @ 0x10000064) - Data: 4E DC 89 00  returns 0x00 (0001ms, 0684ms total)
T1E40 000:863 JLINK_ReadMem (0x10000080, 0x0040 Bytes, ...) -- CPU_ReadMem(64 bytes @ 0x10000080) - Data: 46 66 EC BC 34 7C 35 DF 7B 36 52 C5 1F 03 9C 2D ...  returns 0x00 (0001ms, 0685ms total)
T1E40 000:864 JLINK_ReadMem (0x100000C0, 0x0004 Bytes, ...) -- CPU_ReadMem(4 bytes @ 0x100000C0) - Data: 3E 42 03 82  returns 0x00 (0001ms, 0686ms total)
T1E40 000:865 JLINK_ReadMem (0x100000EC, 0x0030 Bytes, ...) -- CPU_ReadMem(48 bytes @ 0x100000EC) - Data: 00 56 00 7D 50 00 00 5C 06 88 0E 68 24 64 72 00 ...  returns 0x00 (0001ms, 0687ms total)
T1E40 000:866 JLINK_ReadMem (0x1000011C, 0x0004 Bytes, ...) -- CPU_ReadMem(4 bytes @ 0x1000011C) - Data: FF FF FF FF  returns 0x00 (0001ms, 0688ms total)
T1E40 000:882 JLINK_ReadMem (0x4001E400, 0x0004 Bytes, ...) -- CPU_ReadMem(4 bytes @ 0x4001E400) - Data: 01 00 00 00  returns 0x00 (0001ms, 0689ms total)
T1E40 000:883 JLINK_ReadMem (0x4001E504, 0x0010 Bytes, ...) -- CPU_ReadMem(16 bytes @ 0x4001E504) - Data: 00 00 00 00 00 00 00 00 00 00 00 00 00 00 00 00  returns 0x00 (0001ms, 0690ms total)
T1E40 000:884 JLINK_ReadMem (0x4001E514, 0x0004 Bytes, ...) -- CPU_ReadMem(4 bytes @ 0x4001E514) - Data: 00 00 00 00  returns 0x00 (0002ms, 0692ms total)
T1E40 000:886 JLINK_ReadMem (0x4001E400, 0x0004 Bytes, ...) -- CPU_ReadMem(4 bytes @ 0x4001E400) - Data: 01 00 00 00  returns 0x00 (0001ms, 0693ms total)
T1E40 000:887 JLINK_ReadMem (0x4001E400, 0x0004 Bytes, ...) -- CPU_ReadMem(4 bytes @ 0x4001E400) - Data: 01 00 00 00  returns 0x00 (0001ms, 0694ms total)
T1E40 000:903 JLINK_ReadMem (0x10001000, 0x0008 Bytes, ...) -- CPU_ReadMem(64 bytes @ 0x10001000) -- Updating C cache (64 bytes @ 0x10001000) -- Read from C cache (8 bytes @ 0x10001000) - Data: 00 60 01 00 FF FF FF FF  returns 0x00 (0001ms, 0695ms total)
T1E40 000:904 JLINK_ReadMem (0x10001008, 0x0004 Bytes, ...) -- Read from C cache (4 bytes @ 0x10001008) - Data: FF FF FF FF  returns 0x00 (0000ms, 0695ms total)
T1E40 000:904 JLINK_ReadMem (0x10001010, 0x0004 Bytes, ...) -- Read from C cache (4 bytes @ 0x10001010) - Data: FF FF FF FF  returns 0x00 (0000ms, 0695ms total)
T1E40 000:904 JLINK_ReadMem (0x10001014, 0x0004 Bytes, ...) -- Read from C cache (4 bytes @ 0x10001014) - Data: FF FF FF FF  returns 0x00 (0000ms, 0695ms total)
T1E40 001:240 JLINK_ReadMem (0x0001A400, 0x0100 Bytes, ...) -- CPU_ReadMem(256 bytes @ 0x0001A400) -- Updating C cache (256 bytes @ 0x0001A400) -- Read from C cache (256 bytes @ 0x0001A400) - Data: C8 20 00 20 00 10 01 40 D8 20 00 20 ED 20 00 20 ...  returns 0x00 (0003ms, 0698ms total)
T1E40 001:451 JLINK_ReadMem (0x00000000, 0x0100 Bytes, ...) -- CPU_ReadMem(256 bytes @ 0x00000000) -- Updating C cache (256 bytes @ 0x00000000) -- Read from C cache (256 bytes @ 0x00000000) - Data: C0 07 00 00 D1 06 00 00 D1 00 00 00 B1 06 00 00 ...  returns 0x00 (0003ms, 0701ms total)
T0DF8 001:462 JLINK_SetBPEx(Addr = 0x00017624, Type = 0xFFFFFFF2)  returns 0x00000001 (0001ms, 0702ms total)
T0DF8 001:463 JLINK_SetBPEx(Addr = 0x0001768E, Type = 0xFFFFFFF2)  returns 0x00000002 (0000ms, 0702ms total)
T0DF8 001:463 JLINK_Go() -- CPU_WriteMem(4 bytes @ 0xE0002000) -- CPU_WriteMem(4 bytes @ 0xE0002008) -- CPU_WriteMem(4 bytes @ 0xE0002000) -- CPU_WriteMem(4 bytes @ 0xE000200C) -- CPU_WriteMem(4 bytes @ 0xE0002010) -- CPU_WriteMem(4 bytes @ 0xE0002014) -- CPU_WriteMem(4 bytes @ 0xE0001004) (0008ms, 0710ms total)
T0DF8 001:571 JLINK_IsHalted()  returns TRUE (0003ms, 0713ms total)
T0DF8 001:574 JLINK_Halt()  returns 0x00 (0000ms, 0710ms total)
T0DF8 001:574 JLINK_IsHalted()  returns TRUE (0000ms, 0710ms total)
T0DF8 001:574 JLINK_IsHalted()  returns TRUE (0000ms, 0710ms total)
T0DF8 001:574 JLINK_IsHalted()  returns TRUE (0000ms, 0710ms total)
T0DF8 001:574 JLINK_ReadReg(R15 (PC))  returns 0x00017624 (0000ms, 0710ms total)
T0DF8 001:574 JLINK_ReadReg(XPSR)  returns 0x61000000 (0000ms, 0710ms total)
T0DF8 001:574 JLINK_ClrBPEx(BPHandle = 0x00000001)  returns 0x00 (0000ms, 0710ms total)
T0DF8 001:574 JLINK_ClrBPEx(BPHandle = 0x00000002)  returns 0x00 (0000ms, 0710ms total)
T0DF8 001:575 JLINK_ReadMemU32(0xE000ED30, 0x0001 Items, ...) -- CPU_ReadMem(4 bytes @ 0xE000ED30) - Data: 03 00 00 00  returns 0x01 (0001ms, 0712ms total)
T0DF8 001:576 JLINK_ReadMemU32(0xE0001028, 0x0001 Items, ...) -- CPU_ReadMem(4 bytes @ 0xE0001028) - Data: 00 00 00 00  returns 0x01 (0001ms, 0713ms total)
T0DF8 001:577 JLINK_ReadMemU32(0xE0001038, 0x0001 Items, ...) -- CPU_ReadMem(4 bytes @ 0xE0001038) - Data: 00 00 00 00  returns 0x01 (0001ms, 0714ms total)
T0DF8 001:578 JLINK_ReadReg(R0)  returns 0x00017625 (0000ms, 0714ms total)
T0DF8 001:578 JLINK_ReadReg(R1)  returns 0x20003B20 (0000ms, 0714ms total)
T0DF8 001:578 JLINK_ReadReg(R2)  returns 0x00000000 (0000ms, 0714ms total)
T0DF8 001:578 JLINK_ReadReg(R3)  returns 0x000163AD (0000ms, 0714ms total)
T0DF8 001:578 JLINK_ReadReg(R4)  returns 0x00019528 (0000ms, 0714ms total)
T0DF8 001:578 JLINK_ReadReg(R5)  returns 0x00000001 (0000ms, 0714ms total)
T0DF8 001:578 JLINK_ReadReg(R6)  returns 0x00019528 (0000ms, 0714ms total)
T0DF8 001:578 JLINK_ReadReg(R7)  returns 0xFFFFFFFF (0000ms, 0714ms total)
T0DF8 001:578 JLINK_ReadReg(R8)  returns 0xFFFFFFFF (0000ms, 0714ms total)
T0DF8 001:578 JLINK_ReadReg(R9)  returns 0xFFFFFFFF (0000ms, 0714ms total)
T0DF8 001:578 JLINK_ReadReg(R10)  returns 0xFFFFFFFF (0000ms, 0714ms total)
T0DF8 001:578 JLINK_ReadReg(R11)  returns 0xFFFFFFFF (0000ms, 0714ms total)
T0DF8 001:578 JLINK_ReadReg(R12)  returns 0xFFFFFFFF (0000ms, 0714ms total)
T0DF8 001:578 JLINK_ReadReg(R13 (SP))  returns 0x20003B20 (0000ms, 0714ms total)
T0DF8 001:578 JLINK_ReadReg(R14)  returns 0x00016225 (0000ms, 0714ms total)
T0DF8 001:578 JLINK_ReadReg(R15 (PC))  returns 0x00017624 (0000ms, 0714ms total)
T0DF8 001:578 JLINK_ReadReg(XPSR)  returns 0x61000000 (0000ms, 0714ms total)
T0DF8 001:578 JLINK_ReadReg(MSP)  returns 0x20003B20 (0000ms, 0714ms total)
T0DF8 001:578 JLINK_ReadReg(PSP)  returns 0xFFFFFFFC (0000ms, 0714ms total)
T0DF8 001:578 JLINK_ReadReg(CFBP)  returns 0x00000000 (0000ms, 0714ms total)
T1E40 001:579 JLINK_ReadMem (0x00000000, 0x0004 Bytes, ...) -- CPU_ReadMem(64 bytes @ 0x00000000) -- Updating C cache (64 bytes @ 0x00000000) -- Read from C cache (4 bytes @ 0x00000000) - Data: C0 07 00 00  returns 0x00 (0001ms, 0715ms total)
T1E40 001:580 JLINK_ReadMem (0x20003B10, 0x0001 Bytes, ...) -- CPU_ReadMem(64 bytes @ 0x20003B00) -- Updating C cache (64 bytes @ 0x20003B00) -- Read from C cache (1 bytes @ 0x20003B10) - Data: 00  returns 0x00 (0002ms, 0717ms total)
T1E40 001:583 JLINK_ReadMem (0x20002108, 0x0018 Bytes, ...) -- CPU_ReadMem(64 bytes @ 0x20002100) -- Updating C cache (64 bytes @ 0x20002100) -- Read from C cache (24 bytes @ 0x20002108) - Data: 00 00 00 00 00 00 00 00 00 00 00 00 00 00 00 00 ...  returns 0x00 (0001ms, 0718ms total)
T1E40 001:585 JLINK_ReadMem (0x20002014, 0x0004 Bytes, ...) -- CPU_ReadMem(64 bytes @ 0x20002000) -- Updating C cache (64 bytes @ 0x20002000) -- Read from C cache (4 bytes @ 0x20002014) - Data: 00 00 00 00  returns 0x00 (0001ms, 0719ms total)
T1E40 001:588 JLINK_ReadMem (0x40000000, 0x0018 Bytes, ...) -- CPU_ReadMem(24 bytes @ 0x40000000) - Data: 00 00 00 00 00 00 00 00 00 00 00 00 00 00 00 00 ...  returns 0x00 (0002ms, 0721ms total)
T1E40 001:590 JLINK_ReadMem (0x40000018, 0x0004 Bytes, ...) -- CPU_ReadMem(4 bytes @ 0x40000018) - Data: 00 00 00 00  returns 0x00 (0001ms, 0722ms total)
T1E40 001:591 JLINK_ReadMem (0x40000100, 0x0004 Bytes, ...) -- CPU_ReadMem(4 bytes @ 0x40000100) - Data: 00 00 00 00  returns 0x00 (0001ms, 0723ms total)
T1E40 001:592 JLINK_ReadMem (0x40000104, 0x0004 Bytes, ...) -- CPU_ReadMem(4 bytes @ 0x40000104) - Data: 00 00 00 00  returns 0x00 (0001ms, 0724ms total)
T1E40 001:593 JLINK_ReadMem (0x4000010C, 0x0004 Bytes, ...) -- CPU_ReadMem(4 bytes @ 0x4000010C) - Data: 00 00 00 00  returns 0x00 (0001ms, 0725ms total)
T1E40 001:594 JLINK_ReadMem (0x40000110, 0x0004 Bytes, ...) -- CPU_ReadMem(4 bytes @ 0x40000110) - Data: 00 00 00 00  returns 0x00 (0001ms, 0726ms total)
T1E40 001:595 JLINK_ReadMem (0x40000304, 0x0004 Bytes, ...) -- CPU_ReadMem(4 bytes @ 0x40000304) - Data: 00 00 00 00  returns 0x00 (0001ms, 0727ms total)
T1E40 001:596 JLINK_ReadMem (0x40000308, 0x0004 Bytes, ...) -- CPU_ReadMem(4 bytes @ 0x40000308) - Data: 00 00 00 00  returns 0x00 (0001ms, 0728ms total)
T1E40 001:597 JLINK_ReadMem (0x40000408, 0x0004 Bytes, ...) -- CPU_ReadMem(4 bytes @ 0x40000408) - Data: 00 00 00 00  returns 0x00 (0001ms, 0729ms total)
T1E40 001:598 JLINK_ReadMem (0x4000040C, 0x0004 Bytes, ...) -- CPU_ReadMem(4 bytes @ 0x4000040C) - Data: 00 00 01 00  returns 0x00 (0001ms, 0730ms total)
T1E40 001:599 JLINK_ReadMem (0x40000414, 0x0008 Bytes, ...) -- CPU_ReadMem(8 bytes @ 0x40000414) - Data: 00 00 00 00 00 00 00 00  returns 0x00 (0001ms, 0731ms total)
T1E40 001:600 JLINK_ReadMem (0x4000041C, 0x0004 Bytes, ...) -- CPU_ReadMem(4 bytes @ 0x4000041C) - Data: 00 00 00 00  returns 0x00 (0001ms, 0732ms total)
T1E40 001:601 JLINK_ReadMem (0x40000518, 0x0004 Bytes, ...) -- CPU_ReadMem(4 bytes @ 0x40000518) - Data: 00 00 00 00  returns 0x00 (0001ms, 0733ms total)
T1E40 001:602 JLINK_ReadMem (0x40000538, 0x0004 Bytes, ...) -- CPU_ReadMem(4 bytes @ 0x40000538) - Data: 00 00 00 00  returns 0x00 (0001ms, 0734ms total)
T1E40 001:603 JLINK_ReadMem (0x40000550, 0x0004 Bytes, ...) -- CPU_ReadMem(4 bytes @ 0x40000550) - Data: FF FF FF FF  returns 0x00 (0001ms, 0735ms total)
T1E40 001:604 JLINK_ReadMem (0x10000010, 0x0004 Bytes, ...) -- CPU_ReadMem(4 bytes @ 0x10000010) - Data: 00 04 00 00  returns 0x00 (0001ms, 0736ms total)
T1E40 001:605 JLINK_ReadMem (0x10000014, 0x0004 Bytes, ...) -- CPU_ReadMem(4 bytes @ 0x10000014) - Data: 00 01 00 00  returns 0x00 (0001ms, 0737ms total)
T1E40 001:606 JLINK_ReadMem (0x10000028, 0x0004 Bytes, ...) -- CPU_ReadMem(4 bytes @ 0x10000028) - Data: FF FF FF FF  returns 0x00 (0001ms, 0738ms total)
T1E40 001:607 JLINK_ReadMem (0x1000002C, 0x0004 Bytes, ...) -- CPU_ReadMem(4 bytes @ 0x1000002C) - Data: FF FF FF FF  returns 0x00 (0001ms, 0739ms total)
T1E40 001:608 JLINK_ReadMem (0x10000034, 0x0010 Bytes, ...) -- CPU_ReadMem(16 bytes @ 0x10000034) - Data: 02 00 00 00 00 20 00 00 00 20 00 00 FF FF FF FF  returns 0x00 (0001ms, 0740ms total)
T1E40 001:609 JLINK_ReadMem (0x10000044, 0x0004 Bytes, ...) -- CPU_ReadMem(4 bytes @ 0x10000044) - Data: FF FF FF FF  returns 0x00 (0001ms, 0741ms total)
T1E40 001:610 JLINK_ReadMem (0x1000005C, 0x0008 Bytes, ...) -- CPU_ReadMem(8 bytes @ 0x1000005C) - Data: 58 00 FF FF F9 24 B9 1E  returns 0x00 (0001ms, 0742ms total)
T1E40 001:611 JLINK_ReadMem (0x10000064, 0x0004 Bytes, ...) -- CPU_ReadMem(4 bytes @ 0x10000064) - Data: 4E DC 89 00  returns 0x00 (0001ms, 0743ms total)
T1E40 001:612 JLINK_ReadMem (0x10000080, 0x0040 Bytes, ...) -- CPU_ReadMem(64 bytes @ 0x10000080) - Data: 46 66 EC BC 34 7C 35 DF 7B 36 52 C5 1F 03 9C 2D ...  returns 0x00 (0002ms, 0745ms total)
T1E40 001:614 JLINK_ReadMem (0x100000C0, 0x0004 Bytes, ...) -- CPU_ReadMem(4 bytes @ 0x100000C0) - Data: 3E 42 03 82  returns 0x00 (0001ms, 0746ms total)
T1E40 001:615 JLINK_ReadMem (0x100000EC, 0x0030 Bytes, ...) -- CPU_ReadMem(48 bytes @ 0x100000EC) - Data: 00 56 00 7D 50 00 00 5C 06 88 0E 68 24 64 72 00 ...  returns 0x00 (0001ms, 0747ms total)
T1E40 001:616 JLINK_ReadMem (0x1000011C, 0x0004 Bytes, ...) -- CPU_ReadMem(4 bytes @ 0x1000011C) - Data: FF FF FF FF  returns 0x00 (0001ms, 0748ms total)
T1E40 001:617 JLINK_ReadMem (0x40007000, 0x0004 Bytes, ...) -- CPU_ReadMem(4 bytes @ 0x40007000) - Data: 00 00 00 00  returns 0x00 (0001ms, 0749ms total)
T1E40 001:618 JLINK_ReadMem (0x40007004, 0x0004 Bytes, ...) -- CPU_ReadMem(4 bytes @ 0x40007004) - Data: 00 00 00 00  returns 0x00 (0001ms, 0750ms total)
T1E40 001:619 JLINK_ReadMem (0x40007100, 0x0004 Bytes, ...) -- CPU_ReadMem(4 bytes @ 0x40007100) - Data: 00 00 00 00  returns 0x00 (0001ms, 0751ms total)
T1E40 001:620 JLINK_ReadMem (0x40007304, 0x0004 Bytes, ...) -- CPU_ReadMem(4 bytes @ 0x40007304) - Data: 00 00 00 00  returns 0x00 (0001ms, 0752ms total)
T1E40 001:621 JLINK_ReadMem (0x40007308, 0x0004 Bytes, ...) -- CPU_ReadMem(4 bytes @ 0x40007308) - Data: 00 00 00 00  returns 0x00 (0001ms, 0753ms total)
T1E40 001:622 JLINK_ReadMem (0x40007400, 0x0004 Bytes, ...) -- CPU_ReadMem(4 bytes @ 0x40007400) - Data: 00 00 00 00  returns 0x00 (0002ms, 0755ms total)
T1E40 001:624 JLINK_ReadMem (0x40007500, 0x0008 Bytes, ...) -- CPU_ReadMem(8 bytes @ 0x40007500) - Data: 00 00 00 00 18 00 00 00  returns 0x00 (0000ms, 0755ms total)
T1E40 001:625 JLINK_ReadMem (0x40007508, 0x0004 Bytes, ...) -- CPU_ReadMem(4 bytes @ 0x40007508) - Data: 00 00 00 00  returns 0x00 (0000ms, 0756ms total)
T1E40 001:625 JLINK_ReadMem (0x40007FFC, 0x0004 Bytes, ...) -- CPU_ReadMem(4 bytes @ 0x40007FFC) - Data: 01 00 00 00  returns 0x00 (0001ms, 0757ms total)
T1E40 001:627 JLINK_ReadMem (0x4001E400, 0x0004 Bytes, ...) -- CPU_ReadMem(4 bytes @ 0x4001E400) - Data: 01 00 00 00  returns 0x00 (0001ms, 0758ms total)
T1E40 001:628 JLINK_ReadMem (0x4001E504, 0x0010 Bytes, ...) -- CPU_ReadMem(16 bytes @ 0x4001E504) - Data: 00 00 00 00 00 00 00 00 00 00 00 00 00 00 00 00  returns 0x00 (0001ms, 0759ms total)
T1E40 001:629 JLINK_ReadMem (0x4001E514, 0x0004 Bytes, ...) -- CPU_ReadMem(4 bytes @ 0x4001E514) - Data: 00 00 00 00  returns 0x00 (0001ms, 0760ms total)
T1E40 001:630 JLINK_ReadMem (0x10001000, 0x0008 Bytes, ...) -- CPU_ReadMem(64 bytes @ 0x10001000) -- Updating C cache (64 bytes @ 0x10001000) -- Read from C cache (8 bytes @ 0x10001000) - Data: 00 60 01 00 FF FF FF FF  returns 0x00 (0001ms, 0761ms total)
T1E40 001:631 JLINK_ReadMem (0x10001008, 0x0004 Bytes, ...) -- Read from C cache (4 bytes @ 0x10001008) - Data: FF FF FF FF  returns 0x00 (0000ms, 0761ms total)
T1E40 001:631 JLINK_ReadMem (0x10001010, 0x0004 Bytes, ...) -- Read from C cache (4 bytes @ 0x10001010) - Data: FF FF FF FF  returns 0x00 (0000ms, 0761ms total)
T1E40 001:631 JLINK_ReadMem (0x10001014, 0x0004 Bytes, ...) -- Read from C cache (4 bytes @ 0x10001014) - Data: FF FF FF FF  returns 0x00 (0000ms, 0761ms total)
T1E40 001:631 JLINK_ReadMem (0x00017524, 0x003C Bytes, ...) -- CPU_ReadMem(128 bytes @ 0x00017500) -- Updating C cache (128 bytes @ 0x00017500) -- Read from C cache (60 bytes @ 0x00017524) - Data: 27 6A 29 E0 29 78 18 23 59 43 6A 68 50 18 29 78 ...  returns 0x00 (0002ms, 0763ms total)
T1E40 001:633 JLINK_ReadMem (0x00017560, 0x003C Bytes, ...) -- CPU_ReadMem(64 bytes @ 0x00017580) -- Updating C cache (64 bytes @ 0x00017580) -- Read from C cache (60 bytes @ 0x00017560) - Data: A1 60 C1 68 E1 60 01 69 21 61 41 69 E1 61 2A 49 ...  returns 0x00 (0002ms, 0765ms total)
T1E40 001:635 JLINK_ReadMem (0x0001759C, 0x003C Bytes, ...) -- CPU_ReadMem(64 bytes @ 0x000175C0) -- Updating C cache (64 bytes @ 0x000175C0) -- Read from C cache (60 bytes @ 0x0001759C) - Data: 60 60 11 E0 1E 48 A1 68 00 68 01 F0 61 FC 00 90 ...  returns 0x00 (0002ms, 0767ms total)
T1E40 001:637 JLINK_ReadMem (0x000175D8, 0x003C Bytes, ...) -- CPU_ReadMem(64 bytes @ 0x00017600) -- Updating C cache (64 bytes @ 0x00017600) -- Read from C cache (60 bytes @ 0x000175D8) - Data: 00 BF 78 1C 00 28 98 D1 28 78 69 78 88 42 94 D1 ...  returns 0x00 (0001ms, 0768ms total)
T1E40 001:638 JLINK_ReadMem (0x00017622, 0x0002 Bytes, ...) -- Read from C cache (2 bytes @ 0x00017622) - Data: 7F 00  returns 0x00 (0000ms, 0768ms total)
T1E40 001:638 JLINK_ReadMem (0x00017624, 0x003C Bytes, ...) -- CPU_ReadMem(64 bytes @ 0x00017640) -- Updating C cache (64 bytes @ 0x00017640) -- Read from C cache (60 bytes @ 0x00017624) - Data: 0E B5 00 24 03 20 05 21 09 07 07 22 12 02 89 18 ...  returns 0x00 (0001ms, 0769ms total)
T0DF8 005:258 JLINK_SetBPEx(Addr = 0x0001768E, Type = 0xFFFFFFF2)  returns 0x00000003 (0001ms, 0770ms total)
T0DF8 005:259 JLINK_Go() -- CPU_WriteMem(4 bytes @ 0xE0002000) -- CPU_WriteMem(4 bytes @ 0xE0002008) -- CPU_WriteMem(4 bytes @ 0xE000200C) (0005ms, 0775ms total)
T0DF8 005:364 JLINK_IsHalted()  returns FALSE (0001ms, 0776ms total)
T0DF8 005:465 JLINK_IsHalted()  returns FALSE (0000ms, 0775ms total)
T0DF8 005:566 JLINK_IsHalted()  returns FALSE (0001ms, 0776ms total)
T0DF8 005:667 JLINK_IsHalted()  returns TRUE (0003ms, 0778ms total)
T0DF8 005:670 JLINK_Halt()  returns 0x00 (0000ms, 0775ms total)
T0DF8 005:670 JLINK_IsHalted()  returns TRUE (0000ms, 0775ms total)
T0DF8 005:670 JLINK_IsHalted()  returns TRUE (0000ms, 0775ms total)
T0DF8 005:670 JLINK_IsHalted()  returns TRUE (0000ms, 0775ms total)
T0DF8 005:670 JLINK_ReadReg(R15 (PC))  returns 0x0001768E (0000ms, 0775ms total)
T0DF8 005:670 JLINK_ReadReg(XPSR)  returns 0x01000000 (0000ms, 0775ms total)
T0DF8 005:670 JLINK_ClrBPEx(BPHandle = 0x00000003)  returns 0x00 (0000ms, 0775ms total)
T0DF8 005:670 JLINK_ReadMemU32(0xE000ED30, 0x0001 Items, ...) -- CPU_ReadMem(4 bytes @ 0xE000ED30) - Data: 03 00 00 00  returns 0x01 (0001ms, 0776ms total)
T0DF8 005:671 JLINK_ReadMemU32(0xE0001028, 0x0001 Items, ...) -- CPU_ReadMem(4 bytes @ 0xE0001028) - Data: 00 00 00 00  returns 0x01 (0001ms, 0777ms total)
T0DF8 005:672 JLINK_ReadMemU32(0xE0001038, 0x0001 Items, ...) -- CPU_ReadMem(4 bytes @ 0xE0001038) - Data: 00 00 00 00  returns 0x01 (0001ms, 0778ms total)
T0DF8 005:673 JLINK_ReadReg(R0)  returns 0x000170DD (0001ms, 0779ms total)
T0DF8 005:674 JLINK_ReadReg(R1)  returns 0x0000008C (0000ms, 0779ms total)
T0DF8 005:674 JLINK_ReadReg(R2)  returns 0xFFFFFFFF (0000ms, 0779ms total)
T0DF8 005:674 JLINK_ReadReg(R3)  returns 0x00000400 (0000ms, 0779ms total)
T0DF8 005:674 JLINK_ReadReg(R4)  returns 0x00000000 (0000ms, 0779ms total)
T0DF8 005:674 JLINK_ReadReg(R5)  returns 0x00000001 (0000ms, 0779ms total)
T0DF8 005:674 JLINK_ReadReg(R6)  returns 0x40003000 (0000ms, 0779ms total)
T0DF8 005:674 JLINK_ReadReg(R7)  returns 0xFFFFFFFF (0000ms, 0779ms total)
T0DF8 005:674 JLINK_ReadReg(R8)  returns 0xFFFFFFFF (0000ms, 0779ms total)
T0DF8 005:674 JLINK_ReadReg(R9)  returns 0xFFFFFFFF (0000ms, 0779ms total)
T0DF8 005:674 JLINK_ReadReg(R10)  returns 0xFFFFFFFF (0000ms, 0779ms total)
T0DF8 005:674 JLINK_ReadReg(R11)  returns 0xFFFFFFFF (0000ms, 0779ms total)
T0DF8 005:674 JLINK_ReadReg(R12)  returns 0xFFFFFFFF (0000ms, 0779ms total)
T0DF8 005:674 JLINK_ReadReg(R13 (SP))  returns 0x20003B10 (0000ms, 0779ms total)
T0DF8 005:674 JLINK_ReadReg(R14)  returns 0x00017E41 (0000ms, 0779ms total)
T0DF8 005:674 JLINK_ReadReg(R15 (PC))  returns 0x0001768E (0000ms, 0779ms total)
T0DF8 005:674 JLINK_ReadReg(XPSR)  returns 0x01000000 (0000ms, 0779ms total)
T0DF8 005:674 JLINK_ReadReg(MSP)  returns 0x20003B10 (0000ms, 0779ms total)
T0DF8 005:674 JLINK_ReadReg(PSP)  returns 0xFFFFFFFC (0000ms, 0779ms total)
T0DF8 005:674 JLINK_ReadReg(CFBP)  returns 0x00000000 (0000ms, 0779ms total)
T1E40 005:674 JLINK_ReadMem (0x20003B1C, 0x0004 Bytes, ...) -- CPU_ReadMem(64 bytes @ 0x20003B00) -- Updating C cache (64 bytes @ 0x20003B00) -- Read from C cache (4 bytes @ 0x20003B1C) - Data: 25 62 01 00  returns 0x00 (0002ms, 0781ms total)
T1E40 005:676 JLINK_ReadMem (0x20003B10, 0x0001 Bytes, ...) -- Read from C cache (1 bytes @ 0x20003B10) - Data: FF  returns 0x00 (0000ms, 0781ms total)
T1E40 005:676 JLINK_ReadMem (0x00000000, 0x0004 Bytes, ...) -- CPU_ReadMem(64 bytes @ 0x00000000) -- Updating C cache (64 bytes @ 0x00000000) -- Read from C cache (4 bytes @ 0x00000000) - Data: C0 07 00 00  returns 0x00 (0001ms, 0782ms total)
T1E40 005:677 JLINK_ReadMem (0x20002108, 0x0018 Bytes, ...) -- CPU_ReadMem(64 bytes @ 0x20002100) -- Updating C cache (64 bytes @ 0x20002100) -- Read from C cache (24 bytes @ 0x20002108) - Data: 00 00 00 00 00 00 00 00 00 00 00 00 00 00 00 00 ...  returns 0x00 (0002ms, 0784ms total)
T1E40 005:679 JLINK_ReadMem (0x20002014, 0x0004 Bytes, ...) -- CPU_ReadMem(64 bytes @ 0x20002000) -- Updating C cache (64 bytes @ 0x20002000) -- Read from C cache (4 bytes @ 0x20002014) - Data: 00 00 00 00  returns 0x00 (0002ms, 0786ms total)
T1E40 005:682 JLINK_ReadMem (0x40000000, 0x0018 Bytes, ...) -- CPU_ReadMem(24 bytes @ 0x40000000) - Data: 00 00 00 00 00 00 00 00 00 00 00 00 00 00 00 00 ...  returns 0x00 (0001ms, 0787ms total)
T1E40 005:683 JLINK_ReadMem (0x40000018, 0x0004 Bytes, ...) -- CPU_ReadMem(4 bytes @ 0x40000018) - Data: 00 00 00 00  returns 0x00 (0001ms, 0788ms total)
T1E40 005:684 JLINK_ReadMem (0x40000100, 0x0004 Bytes, ...) -- CPU_ReadMem(4 bytes @ 0x40000100) - Data: 01 00 00 00  returns 0x00 (0001ms, 0789ms total)
T1E40 005:685 JLINK_ReadMem (0x40000104, 0x0004 Bytes, ...) -- CPU_ReadMem(4 bytes @ 0x40000104) - Data: 00 00 00 00  returns 0x00 (0001ms, 0790ms total)
T1E40 005:686 JLINK_ReadMem (0x4000010C, 0x0004 Bytes, ...) -- CPU_ReadMem(4 bytes @ 0x4000010C) - Data: 00 00 00 00  returns 0x00 (0001ms, 0791ms total)
T1E40 005:687 JLINK_ReadMem (0x40000110, 0x0004 Bytes, ...) -- CPU_ReadMem(4 bytes @ 0x40000110) - Data: 00 00 00 00  returns 0x00 (0001ms, 0792ms total)
T1E40 005:688 JLINK_ReadMem (0x40000304, 0x0004 Bytes, ...) -- CPU_ReadMem(4 bytes @ 0x40000304) - Data: 00 00 00 00  returns 0x00 (0001ms, 0793ms total)
T1E40 005:689 JLINK_ReadMem (0x40000308, 0x0004 Bytes, ...) -- CPU_ReadMem(4 bytes @ 0x40000308) - Data: 00 00 00 00  returns 0x00 (0001ms, 0794ms total)
T1E40 005:690 JLINK_ReadMem (0x40000408, 0x0004 Bytes, ...) -- CPU_ReadMem(4 bytes @ 0x40000408) - Data: 01 00 00 00  returns 0x00 (0001ms, 0795ms total)
T1E40 005:691 JLINK_ReadMem (0x4000040C, 0x0004 Bytes, ...) -- CPU_ReadMem(4 bytes @ 0x4000040C) - Data: 01 00 01 00  returns 0x00 (0001ms, 0796ms total)
T1E40 005:692 JLINK_ReadMem (0x40000414, 0x0008 Bytes, ...) -- CPU_ReadMem(8 bytes @ 0x40000414) - Data: 01 00 00 00 01 00 01 00  returns 0x00 (0001ms, 0797ms total)
T1E40 005:694 JLINK_ReadMem (0x4000041C, 0x0004 Bytes, ...) -- CPU_ReadMem(4 bytes @ 0x4000041C) - Data: 01 00 00 00  returns 0x00 (0001ms, 0798ms total)
T1E40 005:695 JLINK_ReadMem (0x40000518, 0x0004 Bytes, ...) -- CPU_ReadMem(4 bytes @ 0x40000518) - Data: 01 00 00 00  returns 0x00 (0001ms, 0799ms total)
T1E40 005:696 JLINK_ReadMem (0x40000538, 0x0004 Bytes, ...) -- CPU_ReadMem(4 bytes @ 0x40000538) - Data: 00 00 00 00  returns 0x00 (0001ms, 0800ms total)
T1E40 005:697 JLINK_ReadMem (0x40000550, 0x0004 Bytes, ...) -- CPU_ReadMem(4 bytes @ 0x40000550) - Data: FF FF FF FF  returns 0x00 (0001ms, 0801ms total)
T1E40 005:698 JLINK_ReadMem (0x40000100, 0x0004 Bytes, ...) -- CPU_ReadMem(4 bytes @ 0x40000100) - Data: 01 00 00 00  returns 0x00 (0001ms, 0802ms total)
T1E40 005:700 JLINK_ReadMem (0x40000408, 0x0004 Bytes, ...) -- CPU_ReadMem(4 bytes @ 0x40000408) - Data: 01 00 00 00  returns 0x00 (0000ms, 0802ms total)
T1E40 005:700 JLINK_ReadMem (0x40000408, 0x0004 Bytes, ...) -- CPU_ReadMem(4 bytes @ 0x40000408) - Data: 01 00 00 00  returns 0x00 (0002ms, 0804ms total)
T1E40 005:702 JLINK_ReadMem (0x4000040C, 0x0004 Bytes, ...) -- CPU_ReadMem(4 bytes @ 0x4000040C) - Data: 01 00 01 00  returns 0x00 (0001ms, 0805ms total)
T1E40 005:703 JLINK_ReadMem (0x4000040C, 0x0004 Bytes, ...) -- CPU_ReadMem(4 bytes @ 0x4000040C) - Data: 01 00 01 00  returns 0x00 (0001ms, 0806ms total)
T1E40 005:704 JLINK_ReadMem (0x4000040C, 0x0004 Bytes, ...) -- CPU_ReadMem(4 bytes @ 0x4000040C) - Data: 01 00 01 00  returns 0x00 (0001ms, 0807ms total)
T1E40 005:705 JLINK_ReadMem (0x40000414, 0x0004 Bytes, ...) -- CPU_ReadMem(4 bytes @ 0x40000414) - Data: 01 00 00 00  returns 0x00 (0001ms, 0808ms total)
T1E40 005:706 JLINK_ReadMem (0x40000414, 0x0004 Bytes, ...) -- CPU_ReadMem(4 bytes @ 0x40000414) - Data: 01 00 00 00  returns 0x00 (0001ms, 0809ms total)
T1E40 005:707 JLINK_ReadMem (0x40000418, 0x0004 Bytes, ...) -- CPU_ReadMem(4 bytes @ 0x40000418) - Data: 01 00 01 00  returns 0x00 (0001ms, 0810ms total)
T1E40 005:708 JLINK_ReadMem (0x40000418, 0x0004 Bytes, ...) -- CPU_ReadMem(4 bytes @ 0x40000418) - Data: 01 00 01 00  returns 0x00 (0001ms, 0811ms total)
T1E40 005:709 JLINK_ReadMem (0x40000418, 0x0004 Bytes, ...) -- CPU_ReadMem(4 bytes @ 0x40000418) - Data: 01 00 01 00  returns 0x00 (0001ms, 0812ms total)
T1E40 005:710 JLINK_ReadMem (0x4000041C, 0x0004 Bytes, ...) -- CPU_ReadMem(4 bytes @ 0x4000041C) - Data: 01 00 00 00  returns 0x00 (0001ms, 0813ms total)
T1E40 005:711 JLINK_ReadMem (0x4000041C, 0x0004 Bytes, ...) -- CPU_ReadMem(4 bytes @ 0x4000041C) - Data: 01 00 00 00  returns 0x00 (0001ms, 0814ms total)
T1E40 005:712 JLINK_ReadMem (0x40000518, 0x0004 Bytes, ...) -- CPU_ReadMem(4 bytes @ 0x40000518) - Data: 01 00 00 00  returns 0x00 (0001ms, 0815ms total)
T1E40 005:713 JLINK_ReadMem (0x40000518, 0x0004 Bytes, ...) -- CPU_ReadMem(4 bytes @ 0x40000518) - Data: 01 00 00 00  returns 0x00 (0001ms, 0816ms total)
T1E40 005:714 JLINK_ReadMem (0x10000010, 0x0004 Bytes, ...) -- CPU_ReadMem(4 bytes @ 0x10000010) - Data: 00 04 00 00  returns 0x00 (0002ms, 0818ms total)
T1E40 005:716 JLINK_ReadMem (0x10000014, 0x0004 Bytes, ...) -- CPU_ReadMem(4 bytes @ 0x10000014) - Data: 00 01 00 00  returns 0x00 (0001ms, 0819ms total)
T1E40 005:717 JLINK_ReadMem (0x10000028, 0x0004 Bytes, ...) -- CPU_ReadMem(4 bytes @ 0x10000028) - Data: FF FF FF FF  returns 0x00 (0001ms, 0820ms total)
T1E40 005:718 JLINK_ReadMem (0x1000002C, 0x0004 Bytes, ...) -- CPU_ReadMem(4 bytes @ 0x1000002C) - Data: FF FF FF FF  returns 0x00 (0001ms, 0821ms total)
T1E40 005:719 JLINK_ReadMem (0x10000034, 0x0010 Bytes, ...) -- CPU_ReadMem(16 bytes @ 0x10000034) - Data: 02 00 00 00 00 20 00 00 00 20 00 00 FF FF FF FF  returns 0x00 (0001ms, 0822ms total)
T1E40 005:720 JLINK_ReadMem (0x10000044, 0x0004 Bytes, ...) -- CPU_ReadMem(4 bytes @ 0x10000044) - Data: FF FF FF FF  returns 0x00 (0001ms, 0823ms total)
T1E40 005:721 JLINK_ReadMem (0x1000005C, 0x0008 Bytes, ...) -- CPU_ReadMem(8 bytes @ 0x1000005C) - Data: 58 00 FF FF F9 24 B9 1E  returns 0x00 (0001ms, 0824ms total)
T1E40 005:722 JLINK_ReadMem (0x10000064, 0x0004 Bytes, ...) -- CPU_ReadMem(4 bytes @ 0x10000064) - Data: 4E DC 89 00  returns 0x00 (0001ms, 0825ms total)
T1E40 005:723 JLINK_ReadMem (0x10000080, 0x0040 Bytes, ...) -- CPU_ReadMem(64 bytes @ 0x10000080) - Data: 46 66 EC BC 34 7C 35 DF 7B 36 52 C5 1F 03 9C 2D ...  returns 0x00 (0001ms, 0826ms total)
T1E40 005:724 JLINK_ReadMem (0x100000C0, 0x0004 Bytes, ...) -- CPU_ReadMem(4 bytes @ 0x100000C0) - Data: 3E 42 03 82  returns 0x00 (0001ms, 0827ms total)
T1E40 005:725 JLINK_ReadMem (0x100000EC, 0x0030 Bytes, ...) -- CPU_ReadMem(48 bytes @ 0x100000EC) - Data: 00 56 00 7D 50 00 00 5C 06 88 0E 68 24 64 72 00 ...  returns 0x00 (0002ms, 0829ms total)
T1E40 005:727 JLINK_ReadMem (0x1000011C, 0x0004 Bytes, ...) -- CPU_ReadMem(4 bytes @ 0x1000011C) - Data: FF FF FF FF  returns 0x00 (0001ms, 0830ms total)
T1E40 005:728 JLINK_ReadMem (0x40007000, 0x0004 Bytes, ...) -- CPU_ReadMem(4 bytes @ 0x40007000) - Data: 00 00 00 00  returns 0x00 (0001ms, 0831ms total)
T1E40 005:729 JLINK_ReadMem (0x40007004, 0x0004 Bytes, ...) -- CPU_ReadMem(4 bytes @ 0x40007004) - Data: 00 00 00 00  returns 0x00 (0001ms, 0832ms total)
T1E40 005:730 JLINK_ReadMem (0x40007100, 0x0004 Bytes, ...) -- CPU_ReadMem(4 bytes @ 0x40007100) - Data: 00 00 00 00  returns 0x00 (0001ms, 0833ms total)
T1E40 005:731 JLINK_ReadMem (0x40007304, 0x0004 Bytes, ...) -- CPU_ReadMem(4 bytes @ 0x40007304) - Data: 00 00 00 00  returns 0x00 (0001ms, 0834ms total)
T1E40 005:732 JLINK_ReadMem (0x40007308, 0x0004 Bytes, ...) -- CPU_ReadMem(4 bytes @ 0x40007308) - Data: 00 00 00 00  returns 0x00 (0001ms, 0835ms total)
T1E40 005:733 JLINK_ReadMem (0x40007400, 0x0004 Bytes, ...) -- CPU_ReadMem(4 bytes @ 0x40007400) - Data: 00 00 00 00  returns 0x00 (0001ms, 0836ms total)
T1E40 005:734 JLINK_ReadMem (0x40007500, 0x0008 Bytes, ...) -- CPU_ReadMem(8 bytes @ 0x40007500) - Data: 00 00 00 00 18 00 00 00  returns 0x00 (0001ms, 0837ms total)
T1E40 005:735 JLINK_ReadMem (0x40007508, 0x0004 Bytes, ...) -- CPU_ReadMem(4 bytes @ 0x40007508) - Data: 00 00 00 00  returns 0x00 (0001ms, 0838ms total)
T1E40 005:736 JLINK_ReadMem (0x40007FFC, 0x0004 Bytes, ...) -- CPU_ReadMem(4 bytes @ 0x40007FFC) - Data: 01 00 00 00  returns 0x00 (0001ms, 0839ms total)
T1E40 005:737 JLINK_ReadMem (0x4001E400, 0x0004 Bytes, ...) -- CPU_ReadMem(4 bytes @ 0x4001E400) - Data: 01 00 00 00  returns 0x00 (0001ms, 0840ms total)
T1E40 005:738 JLINK_ReadMem (0x4001E504, 0x0010 Bytes, ...) -- CPU_ReadMem(16 bytes @ 0x4001E504) - Data: 00 00 00 00 00 00 00 00 00 00 00 00 00 00 00 00  returns 0x00 (0002ms, 0842ms total)
T1E40 005:740 JLINK_ReadMem (0x4001E514, 0x0004 Bytes, ...) -- CPU_ReadMem(4 bytes @ 0x4001E514) - Data: 00 00 00 00  returns 0x00 (0001ms, 0843ms total)
T1E40 005:741 JLINK_ReadMem (0x10001000, 0x0008 Bytes, ...) -- CPU_ReadMem(64 bytes @ 0x10001000) -- Updating C cache (64 bytes @ 0x10001000) -- Read from C cache (8 bytes @ 0x10001000) - Data: 00 60 01 00 FF FF FF FF  returns 0x00 (0001ms, 0844ms total)
T1E40 005:742 JLINK_ReadMem (0x10001008, 0x0004 Bytes, ...) -- Read from C cache (4 bytes @ 0x10001008) - Data: FF FF FF FF  returns 0x00 (0000ms, 0844ms total)
T1E40 005:742 JLINK_ReadMem (0x10001010, 0x0004 Bytes, ...) -- Read from C cache (4 bytes @ 0x10001010) - Data: FF FF FF FF  returns 0x00 (0000ms, 0844ms total)
T1E40 005:742 JLINK_ReadMem (0x10001014, 0x0004 Bytes, ...) -- Read from C cache (4 bytes @ 0x10001014) - Data: FF FF FF FF  returns 0x00 (0000ms, 0844ms total)
T1E40 005:742 JLINK_ReadMem (0x0001768A, 0x0002 Bytes, ...) -- CPU_ReadMem(64 bytes @ 0x00017680) -- Updating C cache (64 bytes @ 0x00017680) -- Read from C cache (2 bytes @ 0x0001768A) - Data: 29 48  returns 0x00 (0002ms, 0846ms total)
T1E40 005:744 JLINK_ReadMem (0x0001768C, 0x003C Bytes, ...) -- CPU_ReadMem(64 bytes @ 0x000176C0) -- Updating C cache (64 bytes @ 0x000176C0) -- Read from C cache (60 bytes @ 0x0001768C) - Data: 01 90 29 49 01 A8 00 F0 67 FC 04 46 27 48 00 68 ...  returns 0x00 (0001ms, 0847ms total)
T0DF8 009:506 JLINK_Step() -- Read from C cache (2 bytes @ 0x0001768E) -- CPU_ReadMem(4 bytes @ 0xE0001004) -- CPU_ReadMem(64 bytes @ 0x00017700) -- Updating C cache (64 bytes @ 0x00017700) -- Read from C cache (4 bytes @ 0x00017734) -- Simulated  returns 0x00 (0004ms, 0851ms total)
T0DF8 009:510 JLINK_ReadReg(R15 (PC))  returns 0x00017690 (0000ms, 0851ms total)
T0DF8 009:510 JLINK_ReadReg(XPSR)  returns 0x01000000 (0000ms, 0851ms total)
T0DF8 009:510 JLINK_Step() -- Read from C cache (2 bytes @ 0x00017690) -- Simulated  returns 0x00 (0000ms, 0851ms total)
T0DF8 009:510 JLINK_ReadReg(R15 (PC))  returns 0x00017692 (0000ms, 0851ms total)
T0DF8 009:510 JLINK_ReadReg(XPSR)  returns 0x01000000 (0000ms, 0851ms total)
T0DF8 009:510 JLINK_SetBPEx(Addr = 0x00017696, Type = 0xFFFFFFF2)  returns 0x00000004 (0000ms, 0851ms total)
T0DF8 009:510 JLINK_SetBPEx(Addr = 0x0001768E, Type = 0xFFFFFFF2)  returns 0x00000005 (0000ms, 0851ms total)
T0DF8 009:510 JLINK_Go() -- CPU_WriteMem(4 bytes @ 0xE0002000) -- CPU_WriteMem(4 bytes @ 0xE0002000) -- CPU_WriteMem(4 bytes @ 0xE0002008) -- CPU_WriteMem(4 bytes @ 0xE000200C) -- CPU_WriteMem(4 bytes @ 0xE0001004) (0008ms, 0859ms total)
T0DF8 009:618 JLINK_IsHalted()  returns TRUE (0003ms, 0862ms total)
T0DF8 009:621 JLINK_Halt()  returns 0x00 (0000ms, 0859ms total)
T0DF8 009:621 JLINK_IsHalted()  returns TRUE (0000ms, 0859ms total)
T0DF8 009:621 JLINK_IsHalted()  returns TRUE (0000ms, 0859ms total)
T0DF8 009:621 JLINK_IsHalted()  returns TRUE (0000ms, 0859ms total)
T0DF8 009:621 JLINK_ReadReg(R15 (PC))  returns 0x00017696 (0000ms, 0859ms total)
T0DF8 009:621 JLINK_ReadReg(XPSR)  returns 0x41000000 (0000ms, 0859ms total)
T0DF8 009:621 JLINK_ClrBPEx(BPHandle = 0x00000004)  returns 0x00 (0000ms, 0859ms total)
T0DF8 009:621 JLINK_ClrBPEx(BPHandle = 0x00000005)  returns 0x00 (0000ms, 0859ms total)
T0DF8 009:621 JLINK_ReadMemU32(0xE000ED30, 0x0001 Items, ...) -- CPU_ReadMem(4 bytes @ 0xE000ED30) - Data: 03 00 00 00  returns 0x01 (0002ms, 0861ms total)
T0DF8 009:623 JLINK_ReadMemU32(0xE0001028, 0x0001 Items, ...) -- CPU_ReadMem(4 bytes @ 0xE0001028) - Data: 00 00 00 00  returns 0x01 (0001ms, 0862ms total)
T0DF8 009:624 JLINK_ReadMemU32(0xE0001038, 0x0001 Items, ...) -- CPU_ReadMem(4 bytes @ 0xE0001038) - Data: 00 00 00 00  returns 0x01 (0001ms, 0863ms total)
T0DF8 009:625 JLINK_Step() -- CPU_ReadMem(64 bytes @ 0x00017680) -- Updating C cache (64 bytes @ 0x00017680) -- Read from C cache (2 bytes @ 0x00017696) -- CPU_ReadMem(4 bytes @ 0xE0001004) -- Simulated  returns 0x00 (0002ms, 0865ms total)
T0DF8 009:627 JLINK_ReadReg(R15 (PC))  returns 0x00017698 (0000ms, 0865ms total)
T0DF8 009:627 JLINK_ReadReg(XPSR)  returns 0x41000000 (0000ms, 0865ms total)
T0DF8 009:628 JLINK_ReadReg(R0)  returns 0x00000000 (0000ms, 0865ms total)
T0DF8 009:628 JLINK_ReadReg(R1)  returns 0x20002058 (0000ms, 0865ms total)
T0DF8 009:628 JLINK_ReadReg(R2)  returns 0x20002A60 (0000ms, 0865ms total)
T0DF8 009:628 JLINK_ReadReg(R3)  returns 0x00000400 (0000ms, 0865ms total)
T0DF8 009:628 JLINK_ReadReg(R4)  returns 0x00000000 (0000ms, 0865ms total)
T0DF8 009:628 JLINK_ReadReg(R5)  returns 0x00000001 (0000ms, 0865ms total)
T0DF8 009:628 JLINK_ReadReg(R6)  returns 0x40003000 (0000ms, 0865ms total)
T0DF8 009:628 JLINK_ReadReg(R7)  returns 0xFFFFFFFF (0000ms, 0865ms total)
T0DF8 009:628 JLINK_ReadReg(R8)  returns 0xFFFFFFFF (0000ms, 0865ms total)
T0DF8 009:628 JLINK_ReadReg(R9)  returns 0xFFFFFFFF (0000ms, 0865ms total)
T0DF8 009:628 JLINK_ReadReg(R10)  returns 0xFFFFFFFF (0000ms, 0865ms total)
T0DF8 009:628 JLINK_ReadReg(R11)  returns 0xFFFFFFFF (0000ms, 0865ms total)
T0DF8 009:628 JLINK_ReadReg(R12)  returns 0xFFFFFFFF (0000ms, 0865ms total)
T0DF8 009:628 JLINK_ReadReg(R13 (SP))  returns 0x20003B10 (0000ms, 0865ms total)
T0DF8 009:628 JLINK_ReadReg(R14)  returns 0x000161B3 (0000ms, 0865ms total)
T0DF8 009:628 JLINK_ReadReg(R15 (PC))  returns 0x00017698 (0000ms, 0865ms total)
T0DF8 009:628 JLINK_ReadReg(XPSR)  returns 0x41000000 (0000ms, 0865ms total)
T0DF8 009:628 JLINK_ReadReg(MSP)  returns 0x20003B10 (0000ms, 0865ms total)
T0DF8 009:628 JLINK_ReadReg(PSP)  returns 0xFFFFFFFC (0000ms, 0865ms total)
T0DF8 009:628 JLINK_ReadReg(CFBP)  returns 0x00000000 (0000ms, 0865ms total)
T1E40 009:628 JLINK_ReadMem (0x20003B1C, 0x0004 Bytes, ...) -- CPU_ReadMem(64 bytes @ 0x20003B00) -- Updating C cache (64 bytes @ 0x20003B00) -- Read from C cache (4 bytes @ 0x20003B1C) - Data: 25 62 01 00  returns 0x00 (0002ms, 0867ms total)
T1E40 009:630 JLINK_ReadMem (0x20003B10, 0x0001 Bytes, ...) -- Read from C cache (1 bytes @ 0x20003B10) - Data: FF  returns 0x00 (0000ms, 0867ms total)
T1E40 009:630 JLINK_ReadMem (0x00000000, 0x0004 Bytes, ...) -- CPU_ReadMem(64 bytes @ 0x00000000) -- Updating C cache (64 bytes @ 0x00000000) -- Read from C cache (4 bytes @ 0x00000000) - Data: C0 07 00 00  returns 0x00 (0001ms, 0868ms total)
T1E40 009:631 JLINK_ReadMem (0x20002108, 0x0018 Bytes, ...) -- CPU_ReadMem(64 bytes @ 0x20002100) -- Updating C cache (64 bytes @ 0x20002100) -- Read from C cache (24 bytes @ 0x20002108) - Data: 00 00 00 00 00 00 00 00 00 00 00 00 00 00 00 00 ...  returns 0x00 (0002ms, 0870ms total)
T1E40 009:633 JLINK_ReadMem (0x20002014, 0x0004 Bytes, ...) -- CPU_ReadMem(64 bytes @ 0x20002000) -- Updating C cache (64 bytes @ 0x20002000) -- Read from C cache (4 bytes @ 0x20002014) - Data: 00 00 00 00  returns 0x00 (0001ms, 0871ms total)
T1E40 009:635 JLINK_ReadMem (0x40000000, 0x0018 Bytes, ...) -- CPU_ReadMem(24 bytes @ 0x40000000) - Data: 00 00 00 00 00 00 00 00 00 00 00 00 00 00 00 00 ...  returns 0x00 (0002ms, 0873ms total)
T1E40 009:637 JLINK_ReadMem (0x40000018, 0x0004 Bytes, ...) -- CPU_ReadMem(4 bytes @ 0x40000018) - Data: 00 00 00 00  returns 0x00 (0001ms, 0874ms total)
T1E40 009:638 JLINK_ReadMem (0x40000100, 0x0004 Bytes, ...) -- CPU_ReadMem(4 bytes @ 0x40000100) - Data: 01 00 00 00  returns 0x00 (0001ms, 0875ms total)
T1E40 009:639 JLINK_ReadMem (0x40000104, 0x0004 Bytes, ...) -- CPU_ReadMem(4 bytes @ 0x40000104) - Data: 00 00 00 00  returns 0x00 (0001ms, 0876ms total)
T1E40 009:640 JLINK_ReadMem (0x4000010C, 0x0004 Bytes, ...) -- CPU_ReadMem(4 bytes @ 0x4000010C) - Data: 00 00 00 00  returns 0x00 (0001ms, 0877ms total)
T1E40 009:641 JLINK_ReadMem (0x40000110, 0x0004 Bytes, ...) -- CPU_ReadMem(4 bytes @ 0x40000110) - Data: 00 00 00 00  returns 0x00 (0001ms, 0878ms total)
T1E40 009:642 JLINK_ReadMem (0x40000304, 0x0004 Bytes, ...) -- CPU_ReadMem(4 bytes @ 0x40000304) - Data: 00 00 00 00  returns 0x00 (0001ms, 0879ms total)
T1E40 009:643 JLINK_ReadMem (0x40000308, 0x0004 Bytes, ...) -- CPU_ReadMem(4 bytes @ 0x40000308) - Data: 00 00 00 00  returns 0x00 (0001ms, 0880ms total)
